! Created on 9/7/2020 4:07:50 PM
! Agilent Nonlinear Vector Network Analyzer (NVNA) Version 02.04.05

! S-Parameter data
! freq S11 S21 S12 S22
# Hz S RI R 50
1000000000 0.184110208907907 0.0413071364080803 0.275956507217469 -0.938323188122787 0.276219068024933 -0.943420153152643 0.178374177870077 0.0543894392589328
1050000000 0.192805033526588 0.0319629528260681 0.216227375940921 -0.951668791315033 0.215999968658281 -0.957305160395534 0.188707696690248 0.0451496408156184
1100000000 0.201672440115018 0.0204411926027853 0.155618770529725 -0.959650616867561 0.154770043425022 -0.968117005132372 0.197617799871392 0.0348607514520355
1150000000 0.210103132936994 0.00855468193093643 0.0945016688856058 -0.964427569108511 0.0928846728033195 -0.974186408115333 0.206521723721337 0.0235427753749157
1200000000 0.217346464234047 -0.00640543357076167 0.0333034969808677 -0.970122404625142 0.0315209341706472 -0.976603232646487 0.21423281462774 0.0107450277530127
1250000000 0.223020519481901 -0.0198072001447151 -0.0281415195451387 -0.969611815087984 -0.0301915600540799 -0.974930343018535 0.220681471563019 -0.00307647850698262
1300000000 0.226975495929836 -0.0344742867584529 -0.0889204341949177 -0.964925559324959 -0.090898077507814 -0.969411884990037 0.226352510687487 -0.0168998894271877
1350000000 0.230578241192666 -0.0499661511142441 -0.149261059538747 -0.956267974762647 -0.151313535489677 -0.960566347386745 0.230570559838895 -0.0311061134892359
1400000000 0.232139725586305 -0.0656618259038375 -0.208453246545443 -0.943564176461264 -0.210727572795102 -0.947631697555597 0.233254148772201 -0.0468267194418246
1450000000 0.232597750501413 -0.081840101038462 -0.266364964713326 -0.92720809352282 -0.269109256278853 -0.931723878781067 0.234659255351698 -0.0619791755055186
1500000000 0.231436337509592 -0.0972540377247537 -0.323695488672634 -0.908043863398055 -0.326442173618269 -0.912339714462998 0.234850652655386 -0.0778013623033654
1550000000 0.229093800899437 -0.113808963667697 -0.380029008089521 -0.884956149731034 -0.382706459973699 -0.888639285425882 0.234547230517454 -0.0938333184892853
1600000000 0.225444419300206 -0.13006629585975 -0.434291493564976 -0.858272623906733 -0.43719846264447 -0.861442827064565 0.23200430336846 -0.109964700266226
1650000000 0.219878485863777 -0.146239919131396 -0.486039654738536 -0.828706517931323 -0.489110914941985 -0.831568799005897 0.22787629257436 -0.126494113450685
1700000000 0.21298329534871 -0.16212389981029 -0.53476993815602 -0.795601752552161 -0.538912541051993 -0.798982211440697 0.222580936964339 -0.141794399962422
1750000000 0.205131050874118 -0.177001556052532 -0.582517447664473 -0.760349867008778 -0.586905919304971 -0.763359495136535 0.215584464052745 -0.157411809429358
1800000000 0.19597396232471 -0.190848211316648 -0.628890112170877 -0.721788905359965 -0.63325274491972 -0.724219043699136 0.208427831733887 -0.172080104881219
1850000000 0.18557194703675 -0.204727569874268 -0.672424149802016 -0.681120865326336 -0.676429047778449 -0.683044948821188 0.1988214991841 -0.186262581531937
1900000000 0.173650160707074 -0.218032818710409 -0.712980961384084 -0.637170254605052 -0.716932742086536 -0.638608845273527 0.188814891322135 -0.200219946639756
1950000000 0.16086374075045 -0.229917081479616 -0.749413477263576 -0.591132889890292 -0.754414021472158 -0.592737283063469 0.176805443199939 -0.212802747217297
2000000000 0.147338544328429 -0.240588897149677 -0.783588009781236 -0.543489315891041 -0.7891442156437 -0.544846024321812 0.163859834115993 -0.224288322485143
2050000000 0.132892221050068 -0.24941456404545 -0.815182956455732 -0.493634200066303 -0.821219849082613 -0.494780787403137 0.151112237875929 -0.234622159502725
2100000000 0.117606987918731 -0.258603553603294 -0.844527754302194 -0.441467649267657 -0.850066082787882 -0.442105036000157 0.136879851643036 -0.244288169848051
2150000000 0.101109855764066 -0.26578383086872 -0.869212589185213 -0.388224484044076 -0.875103885365816 -0.388489877897303 0.121750751222604 -0.253069547744535
2200000000 0.0847534269063994 -0.271380783638191 -0.891090187414474 -0.333632160744049 -0.897132285580165 -0.333589961515639 0.105629358031095 -0.259771272590151
2250000000 0.067392574675269 -0.275473074599562 -0.909927202338122 -0.278143974113347 -0.915957370818096 -0.277685039502302 0.0894958388120261 -0.265873819618094
2300000000 0.0504179435032647 -0.27850169742559 -0.92535244812266 -0.220935685996114 -0.931278608563867 -0.220044899970854 0.0725906323049779 -0.269930710015878
2350000000 0.0326453211721675 -0.279844443319435 -0.937788217578508 -0.163183457594429 -0.943641015151455 -0.161947745629041 0.0559781248216928 -0.272859451864499
2400000000 0.0156240051384257 -0.280549618555756 -0.946001158788856 -0.104704830661223 -0.952003624884791 -0.102817001425493 0.0386969688687867 -0.274915807096245
2450000000 -0.00186422403278072 -0.278560192591972 -0.951099043076186 -0.0455186148026495 -0.956846475904727 -0.0431870146801548 0.0213690010105009 -0.274976779870097
2500000000 -0.0196217044156298 -0.276449826179172 -0.952501429518507 0.0133841518618027 -0.957652798595879 0.0159876490590949 0.00371571875941712 -0.274065539520744
2550000000 -0.0357294305586324 -0.271722269068738 -0.950247645570045 0.0729672707257811 -0.955483263483944 0.0760282917326913 -0.0127547593555757 -0.271043500989124
2600000000 -0.053259255358246 -0.2662374335553 -0.944816349749236 0.132210324086541 -0.949313617253178 0.135258709006526 -0.0295677471834992 -0.266660149012839
2650000000 -0.0682699778509998 -0.260474931949509 -0.934928221455013 0.191143726597264 -0.939302503219566 0.194507451524979 -0.0460105498911709 -0.26136564122872
2700000000 -0.0834634650124293 -0.251128715560835 -0.921837337971434 0.24925537915263 -0.926376296959555 0.253204565432806 -0.0612237947405526 -0.254826249255238
2750000000 -0.098058121415533 -0.242781957553696 -0.905268466340695 0.307192690203971 -0.909198187719477 0.311262796073967 -0.0761908472173714 -0.246976487052794
2800000000 -0.110677331983274 -0.232422017978712 -0.884818955981806 0.364126330711938 -0.888463905895627 0.368465720688539 -0.0903819721446337 -0.237744762623562
2850000000 -0.123729886346298 -0.220941702832932 -0.860690160469918 0.419602099284822 -0.863970766127455 0.424077465659944 -0.10360328201146 -0.227261482754242
2900000000 -0.134492052538295 -0.208381641010354 -0.832970926230373 0.473609273132693 -0.835974334379536 0.478116531136297 -0.11584116035138 -0.216140505745735
2950000000 -0.144767923245009 -0.19432491137669 -0.80226440179484 0.525463075438819 -0.805180575758608 0.530070435494042 -0.126875276492228 -0.203011368439193
3000000000 -0.1526692120371 -0.180646445766143 -0.767863861515615 0.576146047354619 -0.77039171749001 0.580581480544858 -0.136577538088442 -0.189961124222012
3100000000 -0.165120620241333 -0.150629455439519 -0.690157600273846 0.670256464387848 -0.691923300847413 0.674842053368033 -0.151294747942002 -0.16074140990709
3150000000 -0.169005963935319 -0.133842825819172 -0.646673337823671 0.713412206808734 -0.648053394569001 0.718041166292865 -0.156683006378984 -0.145817561161146
3200000000 -0.171602722266375 -0.119253600730722 -0.600063208096503 0.753704973734999 -0.601208921574653 0.758662452569889 -0.160057112751261 -0.130461458741765
3300000000 -0.171106367665622 -0.0878230519965154 -0.499901248493464 0.825655511433301 -0.500595562528049 0.831057449014124 -0.162901291575163 -0.0990946999390857
3400000000 -0.164582584276074 -0.0568749211409499 -0.390426806411324 0.884874997714229 -0.390452716414931 0.889978071007838 -0.159349768103939 -0.0684876761476175
3450000000 -0.158770138868596 -0.0443320234222486 -0.332882735046868 0.908118392293219 -0.332365960460857 0.913951687587928 -0.154937221191324 -0.053659143038452
3500000000 -0.151377609581168 -0.0296992189586281 -0.273569969854696 0.928926462623829 -0.272719810621416 0.934065423016618 -0.149506056685213 -0.0403993656225629
3600000000 -0.132876122959547 -0.00710755801635659 -0.15230096711091 0.957495614004477 -0.150946338588988 0.962852415205713 -0.13270444296295 -0.0149367351999497
3700000000 -0.111422901056785 0.00861257422656326 -0.0261526465305191 0.970830592209461 -0.0240542180605549 0.975905045549525 -0.112048862334037 0.00399186472659193
3750000000 -0.0991227931297928 0.0161414687135976 0.0371744554756376 0.970402164257301 0.0396584763260388 0.975515334367572 -0.100833191437541 0.0122035298859946
3800000000 -0.0860870277212187 0.019958234060274 0.100350357431946 0.966450589889573 0.103313726653387 0.971118972813996 -0.0878030623986786 0.0183983841946206
3900000000 -0.0593437986008325 0.0239931662271685 0.225310071446655 0.946015758555993 0.22878869243458 0.950029342673032 -0.0603941571465303 0.0263319817338959
4000000000 -0.0333005520828017 0.0206456038829398 0.347406673385742 0.908982518107659 0.351397659462605 0.912544920120608 -0.0335586258323056 0.0257952434565642
4050000000 -0.0203720619408082 0.0169213150685465 0.406246107583758 0.884117432115847 0.410509842656609 0.887475091423444 -0.0198632561782237 0.0239160842822853
4100000000 -0.00881520416560611 0.0107264721334074 0.462942062768163 0.85570126680331 0.467814491815928 0.859059344984186 -0.00728853043841287 0.0191060827540601
4200000000 0.0109300311597888 -0.00514795572464486 0.571231531741233 0.787451682700777 0.577411738210839 0.790298539584338 0.015761865346558 0.00536567209370978
4300000000 0.0267050867704662 -0.0259887535419286 0.670091909068214 0.704616731161069 0.676158902270539 0.706075776167609 0.0344931999574496 -0.0134533993874592
4350000000 0.031889397493323 -0.0380400081476403 0.714753115455231 0.658127891902324 0.720947460043471 0.659093086817467 0.0417076488925923 -0.0237560686948288
4400000000 0.0360400822040053 -0.0505422750401881 0.756094175817616 0.608682847534891 0.762003857060526 0.609236455457392 0.0481953225914257 -0.0355701331101918
4500000000 0.0391222626848251 -0.0773780448115277 0.828585079273023 0.502208152373795 0.834155746714924 0.502099141554465 0.056787270391366 -0.0621235939924236
4600000000 0.0342688958482152 -0.104967370922325 0.885412015210839 0.387216394393632 0.890640811872131 0.38639903385726 0.0580482563359511 -0.0907081480156443
4650000000 0.0300283723585254 -0.118753159185571 0.907689172599911 0.327375021714089 0.91264288420564 0.326219031006752 0.0561122346565345 -0.106198432703448
4700000000 0.0234315102165353 -0.131818503874366 0.925686235032679 0.266312592700079 0.930660545103641 0.264690597957648 0.0522796783679203 -0.119891924885799
4800000000 0.0057930944836599 -0.155982752077618 0.948605479242637 0.141893732937154 0.953332207982759 0.139184524414763 0.0401163179072782 -0.147802975016832
4900000000 -0.0179940440897821 -0.176847876820595 0.954767855224208 0.0160750221341505 0.958867054271015 0.0124767386522192 0.0205641366884533 -0.172218823171094
4950000000 -0.0303230006597419 -0.185581371224746 0.951719333672133 -0.0467422904872452 0.955154678799814 -0.0502666966581344 0.00931793830618662 -0.184005743416685
5000000000 -0.0460562142863939 -0.193025301618429 0.944065787595711 -0.108575531474051 0.947388379730975 -0.112251135565863 -0.00374402662298721 -0.193837276755316
5100000000 -0.0780560919711513 -0.202413302245125 0.917068873844399 -0.229079755361967 0.920139621425566 -0.233179363671973 -0.033759222800052 -0.209661430452893
5200000000 -0.112452415587349 -0.205144048174251 0.875878626870939 -0.344726091616976 0.877940349802896 -0.348871237021041 -0.0670192264170347 -0.218712363190622
5250000000 -0.129573429277896 -0.203484148985233 0.849738637974761 -0.399574584555041 0.851583650781621 -0.404033779635467 -0.0848930096423613 -0.221258565933342
5300000000 -0.147621919005895 -0.20052821372893 0.820503068262134 -0.45306398153508 0.82174890201331 -0.457384989359399 -0.102434223604783 -0.221454623207033
5400000000 -0.182710641988288 -0.18839971203766 0.751585784468177 -0.552362606549982 0.752236181247331 -0.557209437259295 -0.139114330513406 -0.216433151855659
5500000000 -0.216065986244871 -0.168495704883539 0.670733095636101 -0.640631313210592 0.670709487338296 -0.645606687157718 -0.173525349485753 -0.204140424230237
5550000000 -0.23076686028882 -0.156315157169356 0.626820110779539 -0.680025562722659 0.626626305387957 -0.685270968881705 -0.190147756238332 -0.194845065229303
5600000000 -0.243737205929361 -0.141519773482511 0.580988337550924 -0.716972671462454 0.580748632435232 -0.721942272803918 -0.206268622978685 -0.184109020104449
5700000000 -0.267191619062174 -0.11015416242798 0.483789666030259 -0.781559421372695 0.48284669798583 -0.786468993548502 -0.234367166974795 -0.159045188173128
5800000000 -0.283978303190924 -0.0738169705161433 0.38024151612797 -0.833666530645966 0.378258761236247 -0.839010658400647 -0.257287864330349 -0.128825223865247
5850000000 -0.289206456223115 -0.0539917973379527 0.32693141233495 -0.855536897444967 0.324288466857111 -0.860439364785751 -0.266473586196572 -0.110983874985284
5900000000 -0.29350561300091 -0.0347007382088928 0.271457638334891 -0.873880980497967 0.26850499122366 -0.878372544669257 -0.27414646756917 -0.093780532716818
6000000000 -0.295678710736215 0.00533735170101021 0.158515516827514 -0.899841599322113 0.154729049005275 -0.904173703283275 -0.283407930951507 -0.0567509680608182
6150000000 -0.284020432493962 0.0650037495889434 -0.0155813527495663 -0.913251733779021 -0.0199036360216658 -0.917048309012271 -0.285092418487155 -0.000510025947445168
6300000000 -0.255680916115969 0.118493615653081 -0.190827615133643 -0.894627035718673 -0.195448854160332 -0.897322106958563 -0.270347367258168 0.054123214259191
6450000000 -0.214331398141554 0.161814206861802 -0.361211113001859 -0.842712139111288 -0.366028258231992 -0.844499200387783 -0.241126866808809 0.101485174004939
6600000000 -0.160525943027684 0.191863674125756 -0.521286767175008 -0.758009992624224 -0.526265372458207 -0.758779191453611 -0.201252040495001 0.137237467303695
6750000000 -0.101394488326377 0.204323729708002 -0.662843119751814 -0.640360224553539 -0.667690560243501 -0.63962264256249 -0.152104325913834 0.160195557048205
6900000000 -0.0416866443470408 0.196031344447253 -0.780260357935742 -0.49431213774388 -0.784454703524122 -0.492255493323664 -0.0989528033705091 0.166138355983212
7050000000 0.0182599223621642 0.169261774029621 -0.862274253100007 -0.325106241883093 -0.866024530193974 -0.322758093270046 -0.044971857058874 0.153504346758095
7200000000 0.0636168234655616 0.123666639459336 -0.90524806070731 -0.142515093470827 -0.909570127899135 -0.139017393330259 0.000654373863709636 0.123882766572063
7350000000 0.0866278654037282 0.0592730066708896 -0.909973454422752 0.042591225305386 -0.913309823300158 0.0474034234925655 0.0327770705493368 0.0772452937103873
7500000000 0.0861160016902963 -0.0088995720389796 -0.876512032668369 0.224487277523775 -0.878064657337463 0.228884957769986 0.0434771482388818 0.0204030442881399
7650000000 0.0572100046145411 -0.0727702677496532 -0.806262807455456 0.390623266811065 -0.80723801732821 0.395418783877073 0.030818027589133 -0.0403793404816238
7800000000 0.00165297621497228 -0.121315281406763 -0.706794964292007 0.537492612881425 -0.705973048735274 0.542231454606434 -0.00592103236260038 -0.0920197425048107
7950000000 -0.0711635454132977 -0.144088257513182 -0.583829231488128 0.661852705786304 -0.58281417006513 0.666137266166781 -0.064110340614943 -0.122869960010002
8100000000 -0.146457601936088 -0.134620729638174 -0.439438106957208 0.758918245785884 -0.436982918409046 0.764276415763593 -0.131281141039526 -0.128238108557936
8250000000 -0.213154104234023 -0.0976472140454791 -0.27693374089714 0.827115170191143 -0.273193455170931 0.831709062302094 -0.193408389824171 -0.110772703865354
8400000000 -0.261671900615047 -0.0416286736884117 -0.102854462963145 0.857040687930347 -0.0987259415839793 0.859207293466047 -0.244289436588155 -0.0752505389116415
8550000000 -0.292203860198161 0.0254073902386576 0.066189316290696 0.848391380423474 0.0690272554036035 0.849752432430876 -0.284767434029403 -0.0257214199725587
8700000000 -0.300605812061769 0.104213627004848 0.225367466690905 0.810609488486301 0.229352154735802 0.812145423561768 -0.306994430089406 0.0361797172444152
8850000000 -0.282567788339925 0.182979335325148 0.371985802994224 0.743775356282055 0.376487561455603 0.743719485578786 -0.312214190617764 0.100076261168135
9000000000 -0.239031282060653 0.250775941948738 0.50036960533898 0.65332506299922 0.503898411080699 0.651956262665237 -0.298325062729274 0.1644833326073
