! Created on 9/7/2020 4:12:41 PM
! Agilent Nonlinear Vector Network Analyzer (NVNA) Version 02.04.05

! S-Parameter data
! freq S11 S21 S12 S22
# Hz S RI R 50
1000000000 0.149799479516867 0.0549671449053247 0.372472879147224 -0.909925104829952 0.373783772108965 -0.913889996058456 0.147507882404679 0.055202797789323
1050000000 0.158441154987946 0.0494123838281944 0.31833539067003 -0.928235801617774 0.319409107060109 -0.932752967889816 0.157240783689653 0.0487157427142609
1100000000 0.166865136067159 0.0416294315886922 0.263591381762769 -0.941338738075738 0.2645029397524 -0.948981618844826 0.165037351242137 0.0408533928931153
1150000000 0.175484990384721 0.0342887515827305 0.207888503985904 -0.953102117187291 0.208350054683496 -0.96182951748722 0.173205960741411 0.0330226062422193
1200000000 0.184420765142349 0.0239528766896611 0.151786858268848 -0.965444434111394 0.151668537766482 -0.971333091938052 0.181327767478344 0.0235098500697706
1250000000 0.191567349270961 0.0143006104450533 0.0945674708530949 -0.972639384299409 0.0942571984083624 -0.976915666360921 0.188366885126396 0.012707528486
1300000000 0.197438911572281 0.00357946883459209 0.0378046298479255 -0.975660657244224 0.0375029572903071 -0.979204503269677 0.194822119831993 0.00219802637977293
1350000000 0.203239663679789 -0.0080223210855906 -0.018986038693923 -0.975003276667968 -0.0193880751963835 -0.978494905585788 0.200019210986944 -0.0092657494501653
1400000000 0.207460699035313 -0.0199493054251446 -0.0753494092233368 -0.971159586217062 -0.0757959790424534 -0.974417629332358 0.204101692528396 -0.0217776624948621
1450000000 0.211335998648389 -0.0322388247829054 -0.130859502192556 -0.963702374398531 -0.131727820119775 -0.967684102311241 0.207132639259707 -0.0340758799659425
1500000000 0.213650968584789 -0.0444819267709685 -0.186307551446734 -0.953645602403215 -0.187307789308226 -0.957740341367507 0.209523780485787 -0.0470005172859979
1550000000 0.215283064961315 -0.0580019503535713 -0.241621184874214 -0.940586651740408 -0.242441720149004 -0.943978040311798 0.211468729159072 -0.0601095881920436
1600000000 0.216262208274343 -0.0712221406593865 -0.295814628045034 -0.924272286127207 -0.296851951778228 -0.927170412364102 0.211853564888585 -0.0734786638098242
1650000000 0.215773238603436 -0.0855349524704249 -0.348313193169668 -0.904557884919731 -0.349480514439558 -0.907177244306777 0.211186916534619 -0.0878603532107999
1700000000 0.214230585683925 -0.0998124835075676 -0.398211161109794 -0.881221118505116 -0.400303851732535 -0.884681291380363 0.209300448469032 -0.101382605165174
1750000000 0.211528895071932 -0.113633706496543 -0.447749402904605 -0.85608956521824 -0.450024066907524 -0.859378763628687 0.20605953380196 -0.115370640599152
1800000000 0.20769717538012 -0.126821267285662 -0.4968033466658 -0.828117075756652 -0.499123993324632 -0.830911952130583 0.202820836799945 -0.128315508204177
1850000000 0.203088998842514 -0.140497847215072 -0.543607071879144 -0.797825768294858 -0.545596693639514 -0.800123171406595 0.197554724771252 -0.141821935765658
1900000000 0.197116667252068 -0.154480765586001 -0.58829591470004 -0.763969677048264 -0.590506108631891 -0.766141604202244 0.192106664515035 -0.155256372846528
1950000000 0.190173652265622 -0.167677836515944 -0.629530589333161 -0.727593244623658 -0.632789081929332 -0.730036335930552 0.184932368034594 -0.168201635426953
2000000000 0.182180190681294 -0.17983870167685 -0.668640715251371 -0.689564350832213 -0.672734691291135 -0.692156489478309 0.176238350463595 -0.180479970699408
2050000000 0.173046555338053 -0.191048539869257 -0.706554370369718 -0.649690684979383 -0.710900942619391 -0.652074864946256 0.167729345058913 -0.191271681796087
2100000000 0.163664693730509 -0.202736152653327 -0.743026680217805 -0.607514336419771 -0.746891484469861 -0.609369896562632 0.158026214273485 -0.20203959670296
2150000000 0.152473028933293 -0.213511670073632 -0.775702537663391 -0.563287419581811 -0.779756248146659 -0.564955940765798 0.147812869319587 -0.21261922126248
2200000000 0.141419566748204 -0.223327370840394 -0.805872992800155 -0.517211448032888 -0.810229412613617 -0.518850703422163 0.136295159326422 -0.22214671858387
2250000000 0.128723673457844 -0.232023097788651 -0.833760027633236 -0.470239251046218 -0.838078183569398 -0.471547045876879 0.124602075662487 -0.231201007078792
2300000000 0.116119105827186 -0.240410540525839 -0.858990503841702 -0.420957299029099 -0.863173544383141 -0.421982187376318 0.111532299674213 -0.23879878933629
2350000000 0.102109911095901 -0.247670879968578 -0.881583620204715 -0.370898136624083 -0.885700598282982 -0.371748406540665 0.0983835746063027 -0.245478250463728
2400000000 0.0882585499550534 -0.254422008770593 -0.900728469107809 -0.319616480116637 -0.905150232410244 -0.320070024191922 0.0851582593222775 -0.251546757957626
2450000000 0.0735021019316137 -0.259094117393493 -0.91717099624986 -0.267187790616528 -0.921831060113859 -0.267301035366853 0.0710166993893412 -0.256556118157982
2500000000 0.0577637760444085 -0.264115249325484 -0.930638646212023 -0.214209542935118 -0.934912581293061 -0.214008079176895 0.0565146214469819 -0.261275071206659
2550000000 0.0425640588419409 -0.266690142880667 -0.941048792152172 -0.159944255670826 -0.945534478585875 -0.159374529367977 0.0420385105226111 -0.263945942638549
2600000000 0.025497893797188 -0.268883859854134 -0.948318714896643 -0.105877125433588 -0.952414087695642 -0.10506868637151 0.0266513060527404 -0.265854917540034
2650000000 0.010902416812739 -0.270322189266784 -0.952302698629269 -0.0512996711184332 -0.956518213880914 -0.0501788222783849 0.0116296230360264 -0.266650699424106
2700000000 -0.00554504752880374 -0.268821755654915 -0.953724818268675 0.00331463833050638 -0.958189911716252 0.00481055483758903 -0.00290162149113479 -0.266379136260922
2750000000 -0.0215632116246182 -0.268408357646391 -0.952169930501883 0.0585569375029079 -0.956168836036777 0.0602045402205296 -0.0176159704666103 -0.265242676759979
2800000000 -0.0368056515576902 -0.265759174530696 -0.94687838478085 0.113638810702097 -0.95099203747226 0.115722291839321 -0.0326751698799789 -0.263195777242518
2850000000 -0.0532352064426171 -0.262184516276025 -0.938641725186637 0.168324941709347 -0.942411515595727 0.170433830760464 -0.047282785229402 -0.259835539401087
2900000000 -0.0682576389673248 -0.256985098135769 -0.927361382301086 0.222533697435804 -0.930694305077878 0.224541635223581 -0.0617640091309413 -0.255501410075382
2950000000 -0.0839683444837017 -0.25052529949971 -0.912533765879655 0.275126347962628 -0.916248527568744 0.277439849174652 -0.0760523704528693 -0.249821619294305
3000000000 -0.0974279629311234 -0.24347678245881 -0.895283110403818 0.328037547161597 -0.898652840769741 0.330208935318446 -0.089135277397117 -0.243578690768487
3100000000 -0.124485435199707 -0.225551676504768 -0.851455304996337 0.429150396704681 -0.854389348597824 0.43164228528258 -0.114272531990074 -0.227495150251066
3150000000 -0.136951134028273 -0.214072370296703 -0.825451427003355 0.477747750987588 -0.827906444886176 0.480175194196149 -0.125809079500439 -0.21834069099931
3200000000 -0.147912418734963 -0.203887831785713 -0.796205969997945 0.524908955761377 -0.798683145885399 0.527646457397503 -0.136016570894297 -0.208460074025157
3300000000 -0.167721611926023 -0.178275168226393 -0.730319854636763 0.613868735810872 -0.732854619705976 0.617026694509295 -0.154432081726996 -0.186479913218928
3400000000 -0.183397996076819 -0.149610014213834 -0.654432867071111 0.69507015984533 -0.656664766852527 0.698295210757889 -0.169297445078414 -0.162170505782566
3450000000 -0.188206005355213 -0.135924034546719 -0.613067965400659 0.731856670187989 -0.614902548948954 0.735657247700295 -0.174824436179154 -0.149183310896132
3500000000 -0.193208859977664 -0.119602719688037 -0.569692817117352 0.767192976360284 -0.571115960725067 0.770695215881543 -0.179019580792551 -0.137125909606651
3600000000 -0.198416510525496 -0.0891054451847062 -0.476378779319466 0.82816804061586 -0.47751361421202 0.832150914403116 -0.185865463297852 -0.109653537048673
3700000000 -0.197756729845 -0.0593020934391177 -0.376106903470181 0.878543992443737 -0.377003682250689 0.882624367999349 -0.186615419722926 -0.0822291702644506
3750000000 -0.195705485739727 -0.043616135543733 -0.324378851940871 0.899194162000592 -0.325070828415053 0.903267057048981 -0.185414921312424 -0.0695036276923846
3800000000 -0.191599328760461 -0.029929591942964 -0.271345664628072 0.917501228367586 -0.271520936637225 0.921338933210979 -0.182590735982652 -0.0564633969370887
3900000000 -0.180584736892235 -0.00237610654067509 -0.162234443023044 0.943639934439697 -0.162072539640832 0.947227130123908 -0.174241513599717 -0.0319489099363621
4000000000 -0.16407903762876 0.020843331524729 -0.0511088316284402 0.957644366509017 -0.0503153600593834 0.961333509041421 -0.161672962647878 -0.0115613511694722
4050000000 -0.154553534285108 0.0312829762070387 0.00534723341778322 0.959957721706477 0.0065019570308206 0.963424569367001 -0.154418007639466 -0.00164346861283291
4100000000 -0.144860307065258 0.0402301701772594 0.0619380857495105 0.95828192094632 0.0634334453733743 0.962048695077191 -0.146589084513687 0.00648110330440353
4200000000 -0.122542798705822 0.0546043096639274 0.17465379050476 0.945652470150251 0.177222966853508 0.949822636732905 -0.128393087086246 0.0199223285480283
4300000000 -0.097739434848977 0.0636651031556383 0.286478218328604 0.91986646284985 0.289310417958429 0.923298071318166 -0.10831183084993 0.0288401526845393
4350000000 -0.0856816391482813 0.0654847461979394 0.340912440537023 0.901819146162803 0.344039634498278 0.905151733202255 -0.0986171459149559 0.0318776669289487
4400000000 -0.0728857953689082 0.0664899951075622 0.39454172460276 0.880383034682025 0.39776452557593 0.88356166922265 -0.0883448781673798 0.0334063378709731
4500000000 -0.048578343743843 0.0644729495008024 0.49878908086268 0.828365545099122 0.5021200949101 0.831035420250268 -0.068335551776421 0.033294316299572
4600000000 -0.0264523663837162 0.0565403452880199 0.596342872149048 0.763223409847074 0.599357250045105 0.764846835295192 -0.0492804798633447 0.029098222003138
4650000000 -0.0154569700273167 0.051298633317614 0.64199122908015 0.726008484414865 0.645134056996656 0.727417520008397 -0.0394128222715651 0.0249140500904345
4700000000 -0.00617772978993877 0.0449212545966472 0.684897872106353 0.685870195309805 0.688105579014527 0.687043525742595 -0.0310720156303406 0.0205276503465192
4800000000 0.0104774532420836 0.0274477121111219 0.763113946858763 0.59785591985362 0.766522220000865 0.598581183143097 -0.0147251249816349 0.00727061999381767
4900000000 0.0235164380672398 0.00640231866329568 0.829597982045932 0.500308299630054 0.83352374760593 0.500386008145586 -0.0040100844710913 -0.00971557477241461
4950000000 0.02836436674315 -0.00448546574786395 0.858879833998364 0.448522557118517 0.862222700538216 0.448296929132744 0.00084894013343085 -0.0189583273470735
5000000000 0.0316795374946581 -0.0172497113791601 0.884086302188162 0.394684790206494 0.887736477091015 0.394222023575618 0.00389709593684304 -0.0284994459459874
5100000000 0.0334741695127164 -0.0429731791186755 0.924161448069462 0.283535644182357 0.928175917835973 0.282578815825387 0.00714557931784052 -0.0497367468065174
5200000000 0.0299426533427992 -0.0679771627652923 0.950650892547571 0.167598241193456 0.953877633932979 0.166157732311052 0.00486680301610195 -0.071928548417545
5250000000 0.0256662687243095 -0.0795196477822077 0.957663736267609 0.108717028006616 0.961134279815504 0.107123339970037 0.00188792873307259 -0.0834861128297461
5300000000 0.0195653654586299 -0.092953347905456 0.961530597824841 0.0494252534034322 0.964695339224654 0.0478236285661066 -0.00193836303640955 -0.0943645777264731
5400000000 0.00355901250690844 -0.116412246494615 0.956972830997441 -0.0679562402350277 0.960116066036632 -0.0701831227055238 -0.0147408076435129 -0.116028768692611
5500000000 -0.0178194201232773 -0.135989821432834 0.93806803050048 -0.184096894026062 0.94078033675887 -0.186775774196694 -0.0325526319295494 -0.134427123587089
5550000000 -0.0301931316397603 -0.145324315799674 0.922770531872894 -0.240176717862104 0.925451672527819 -0.243209545590653 -0.0433407289253067 -0.142367030454076
5600000000 -0.0437644283833264 -0.151301593432143 0.90440206580812 -0.295373237563045 0.906851160553523 -0.298359102066339 -0.0555998537693837 -0.149322826889833
5700000000 -0.0733141889151037 -0.162992841310156 0.857814187851469 -0.401164478139608 0.859510838660057 -0.404267392456696 -0.0821616101391986 -0.16030587811118
5800000000 -0.107157443610005 -0.168099205137979 0.798813895853109 -0.498556133418574 0.800233349254666 -0.502329128998735 -0.111792564363049 -0.1663238078052
5850000000 -0.12413136432723 -0.16723813588591 0.765546989079684 -0.544395654124984 0.766446176943255 -0.548020962989335 -0.128268698401881 -0.166650670401802
5900000000 -0.14172987095716 -0.165821185210165 0.729193708257281 -0.587976094032103 0.729790578759167 -0.591794174957961 -0.144021066253634 -0.166022561993484
6000000000 -0.176691411265161 -0.156745705392479 0.650431245232329 -0.666975646205134 0.650267159099774 -0.671168306187487 -0.175685673512305 -0.157586541310717
6150000000 -0.224535198755419 -0.13017512913163 0.51682539884352 -0.766962058105289 0.516237816192724 -0.770563071206628 -0.220981999628968 -0.136532692746545
6300000000 -0.264477002069051 -0.0903637969280394 0.369495292459687 -0.840119301033202 0.368680088627507 -0.843332267415751 -0.25998620700193 -0.102845039334101
6450000000 -0.294566115548977 -0.0419514171938217 0.21325765846533 -0.885581407930373 0.211598863609081 -0.88876787611235 -0.291377860004385 -0.0593762676893284
6600000000 -0.312153879814304 0.0164724204281493 0.0524325111975436 -0.903775119803539 0.050805745156834 -0.905982420882321 -0.312092379751407 -0.00756092193254182
6750000000 -0.315402592020792 0.0765224205678987 -0.107242738758059 -0.892948629459865 -0.109316848552076 -0.894540341066165 -0.318967379079583 0.0494965793981875
6900000000 -0.302686576632934 0.137040627398751 -0.263112942241522 -0.855890751057831 -0.265185647673514 -0.856706901239297 -0.312137599979045 0.108555745301307
7050000000 -0.272644611286169 0.198182888751811 -0.407791192829177 -0.791119421095515 -0.409972612327029 -0.791487523650271 -0.290165866921092 0.166216117844737
7200000000 -0.227505193805749 0.250752040838882 -0.536726366675509 -0.701293732486354 -0.539550987250152 -0.701560415672383 -0.251685070612538 0.217936362482833
7350000000 -0.167880577932577 0.288272010779172 -0.646990791313111 -0.592922156888958 -0.649562779565004 -0.59245903757169 -0.19949964569145 0.258132476920295
7500000000 -0.0982786911252212 0.308588877167344 -0.735822004414031 -0.468913975257509 -0.73815213333159 -0.468488685786774 -0.136803661639182 0.280507818982824
7650000000 -0.0235464696456936 0.306719594931299 -0.80230719202346 -0.332903787589128 -0.804236340006715 -0.331417386745321 -0.0694885681745671 0.282833214474167
7800000000 0.0451393732742469 0.280961843332496 -0.845804207951674 -0.191170377018862 -0.847351615367872 -0.189470992844976 -0.00611392158769021 0.262077878061778
7950000000 0.0992187959124128 0.233695908542936 -0.86857309982717 -0.0466167098980837 -0.869992200380549 -0.0451378024536238 0.0438920421837755 0.220726773996548
8100000000 0.13115484167753 0.17202733175381 -0.872606346634277 0.104344973876169 -0.874470552638264 0.107558781455745 0.0711356678577679 0.169254254356595
8250000000 0.141340255435746 0.111701715860535 -0.851247225549869 0.264844544326887 -0.852271254626022 0.267632830506477 0.0800510828970298 0.118827241130215
8400000000 0.13454429756658 0.0566757310664794 -0.793344537660625 0.425681638474935 -0.793213491587156 0.428431786164669 0.0768315092249034 0.0745392174665065
8550000000 0.111409123322625 0.000962932649786582 -0.70175475683189 0.569310652399456 -0.700989206789189 0.570679524156581 0.0604185522829512 0.0276300089396021
8700000000 0.0695955823329974 -0.0420227926627399 -0.583845062257805 0.695108757589724 -0.583104197409565 0.697055515257443 0.0274335498660211 -0.00734018464414985
8850000000 0.0197940683570177 -0.0649265988497777 -0.437330412205884 0.796392168357128 -0.436337004589495 0.798137621440905 -0.0125781787061971 -0.0289029507497647
9000000000 -0.0348429582400395 -0.0706226410138758 -0.271588363053089 0.862419452532063 -0.27008556303056 0.864209511374419 -0.0580474042478874 -0.0374300541109737
