! Created on 14/12/2020 11:52:40
! CINVESTAV

! S-Parameter data
! freq S11 S21 S12 S22
# Hz S RI R 50
3000000000 0.455425892031672 -0.407654431072551 2.086451071759271 2.348650814707036 -0.209735486897483 -0.141014513726600 0.250592801068751 -0.260075741875141
3100000000 0.359233834539834 -0.487431863921005 2.101540651657555 2.198184841831834 -0.236818909120830 -0.105727023358877 0.226231303873815 -0.282235305940077
3150000000 0.309175717226124 -0.520733302605232 2.090092785339943 2.129534952017028 -0.250794215633403 -0.087706230217447 0.215729114892493 -0.296921911105532
3200000000 0.255547642472067 -0.547348436149026 2.092875395027324 2.058750997358624 -0.260140991666554 -0.066873557958850 0.201594310292887 -0.306401939075256
3300000000 0.147238396055688 -0.585822980424096 2.075322144949943 1.921422098757222 -0.276519137969935 -0.023255411386075 0.171815380610651 -0.330207664473942
3400000000 0.038917740359898 -0.605800099527985 2.035727195431428 1.803394797746514 -0.287027693139404 0.024207314382398 0.138453501644141 -0.354739069048749
3450000000 -0.014901169771188 -0.607474135334250 2.025626339323847 1.741620543161411 -0.287346703517652 0.049930438832893 0.116197785740618 -0.364701254444364
3500000000 -0.064803962101152 -0.606106770180090 1.997564830000691 1.692065772166228 -0.286794825412283 0.074920933264455 0.095625552176383 -0.374563003358966
3600000000 -0.161064155055972 -0.589264705901200 1.964487715801890 1.591721482077652 -0.276789981625552 0.124997404622588 0.047888517131777 -0.391702233193066
3700000000 -0.244525570122189 -0.560861440728043 1.929895902880335 1.509053207252485 -0.256020528195128 0.171990686441998 -0.006071050849667 -0.400128108978712
3750000000 -0.281844635008471 -0.544932801080175 1.910568113411865 1.465800886268784 -0.243455496774382 0.193008234976766 -0.032390866909014 -0.401812469617747
3800000000 -0.318128301938574 -0.526369011484689 1.894241268527450 1.430086018157127 -0.226696007467569 0.214529616826092 -0.064530757773864 -0.399819270431830
3900000000 -0.381998063279866 -0.485170327952701 1.857762351275391 1.367870062727158 -0.189260308707703 0.251370372409504 -0.126302418497329 -0.391384256722748
4000000000 -0.436794220069624 -0.442216357260309 1.849701859219197 1.296238485196620 -0.146667903424949 0.279245451031396 -0.190837608023235 -0.370547367229150
4050000000 -0.461761370165889 -0.417867775301754 1.844309160616232 1.263393040417438 -0.122091648870784 0.290489850484374 -0.225220589631783 -0.354756052603610
4100000000 -0.484176885032229 -0.393626673400602 1.845773087022649 1.228836286137321 -0.098997322602055 0.298717828848698 -0.255565883215015 -0.338563881519029
4200000000 -0.526404302298610 -0.343163943763952 1.853656262939636 1.155157138749148 -0.048332318151314 0.308069019396334 -0.317058989661192 -0.289519304412985
4300000000 -0.564074646904597 -0.288359420868056 1.854075533310335 1.090903465996146 0.003186852693691 0.307154238268395 -0.367161271586991 -0.228406345253963
4350000000 -0.580646544242190 -0.259188390195296 1.858640118179798 1.052700150515853 0.028000377593936 0.302623037779648 -0.387940267847452 -0.193359290975394
4400000000 -0.595380171663470 -0.227267966904591 1.860994472128562 1.018917183511081 0.052027687456397 0.295545586981517 -0.405138468742549 -0.157186784745655
4500000000 -0.619250479659613 -0.161913026288327 1.862200119806311 0.952853740757562 0.096828818685251 0.274557112369847 -0.428162945930557 -0.077967514355841
4600000000 -0.636068535707456 -0.089010452607959 1.869773956966970 0.882736719288278 0.134401566108490 0.246676055694773 -0.435841105813166 0.003117010103740
4650000000 -0.643155832767368 -0.049619186454517 1.866574769493389 0.854001409732839 0.151322127715201 0.230326913026940 -0.434125722210873 0.045040265281850
4700000000 -0.644245210492919 -0.010701166572566 1.875762793520814 0.810722373975648 0.165035710317266 0.213904468606538 -0.430529779254027 0.085323171079666
4800000000 -0.640904218882704 0.072518781012960 1.887983411122069 0.732988274253156 0.186404780477164 0.178536261055526 -0.409056843734332 0.164393285344997
4900000000 -0.625874393037608 0.160420186623299 1.901724025086790 0.650067722059688 0.199007084102117 0.142691008107508 -0.371553205074123 0.234918570852820
4950000000 -0.612315588148581 0.202250062825219 1.896546685252220 0.617547709300618 0.203539965104247 0.125477150939839 -0.353098989819414 0.269025778811921
5000000000 -0.593870071298121 0.247792756940075 1.905483923505386 0.572989860238327 0.204800715438750 0.109112284206591 -0.325510403579831 0.296157632121447
5100000000 -0.550210981052253 0.332456635959533 1.904811999452918 0.492941590270564 0.205386656510943 0.079178500226478 -0.272685690648068 0.350030867677639
5200000000 -0.491619738950414 0.411139759388377 1.901508531644573 0.408558566923092 0.201684682112241 0.053817458164157 -0.210406334259421 0.395239843199801
5250000000 -0.458186756110131 0.450357090622949 1.896691214365127 0.370204393182467 0.198959628067009 0.043091769457331 -0.175271983941193 0.411734794678318
5300000000 -0.419130980586998 0.483548954842585 1.887627072751693 0.334735985899348 0.196030683817578 0.033698142538206 -0.143047388914019 0.430885609586831
5400000000 -0.336639333449182 0.544660483203268 1.874306909521168 0.255822976784496 0.190763840059846 0.018781809731350 -0.070639615894144 0.453207835560470
5500000000 -0.245192284398842 0.590101462571927 1.855661936794919 0.181370763540118 0.187643195678360 0.007913335522458 0.002405509124248 0.460014613568614
5550000000 -0.198471146895035 0.609559804803180 1.844558343651808 0.137426583655515 0.186946234918672 0.003380324594549 0.037500893178717 0.460071697938234
5600000000 -0.149983695176943 0.623870756705165 1.831058295185868 0.112944610748255 0.188104654023136 -0.000437836509303 0.075230210837082 0.458092760483107
5700000000 -0.049986623700854 0.639895976751059 1.801245543353029 0.033915678172528 0.192273827220268 -0.008536373996158 0.146226317650795 0.443379830001834
5800000000 0.050591115287433 0.639402494315941 1.766392497250834 -0.035673673188316 0.201177068181731 -0.017491259725154 0.215971166007969 0.420823218149017
5850000000 0.100077686966390 0.633438935309774 1.748838406031422 -0.072473958559250 0.208075826967401 -0.024051011170229 0.252453906896235 0.403552934902961
5900000000 0.147912729584409 0.622522455284126 1.729731463227671 -0.101836170183259 0.215017011753593 -0.031044800636229 0.284944224828428 0.386803096664879
6000000000 0.242916714320096 0.592056797242145 1.686433199818535 -0.171334445236049 0.230788931978240 -0.050381766495232 0.346305181549236 0.340567334510529
6150000000 0.372171566103889 0.516947948233951 1.621673659063304 -0.266433541060746 0.254526654522143 -0.095634872657965 0.426405114370045 0.255370253347863
6300000000 0.480013598974061 0.407549025015887 1.547075005171568 -0.361860432306743 0.270995086739336 -0.162420312123560 0.494015375115495 0.149965084045802
6450000000 0.559303334555561 0.270308465535483 1.453654046477876 -0.467382062793469 0.267560929891625 -0.250639405347511 0.535036044629461 0.020598061705253
6600000000 0.600669716439264 0.111327984082025 1.345243006658785 -0.560894864336750 0.232241024750399 -0.356418218137127 0.544941120926279 -0.120509218600353
6750000000 0.603045763978597 -0.057797763334134 1.220666634283315 -0.636694117193079 0.153149572559005 -0.471866121027325 0.514877957656020 -0.265716177132783
6900000000 0.555685750514328 -0.221960177505041 1.082952339625218 -0.693960302491592 0.018573981573211 -0.574575797547247 0.446290483498720 -0.402549999623497
7050000000 0.483135570939624 -0.366906127606255 0.957028335399180 -0.719353022290112 -0.170504444904556 -0.650076920950211 0.339168507476002 -0.516395473275123
