! Created on 9/7/2020 5:06:27 PM
! Agilent Nonlinear Vector Network Analyzer (NVNA) Version 02.04.05

! S-Parameter data
! freq S11 S21 S12 S22
# Hz S RI R 50
1000000000 -0.666426731961143 -0.239396675526515 7.17451283100302 6.03212897874253 0.0735905045394755 -0.0133709282673317 -0.109447584065511 0.0360305502217573
1050000000 -0.67577453648196 -0.135308078001201 7.60083777336109 5.0803244660631 0.0751303449146303 -0.0203108768182393 -0.105659125983308 0.0641138850312362
1100000000 -0.679462464076339 -0.0334051361050056 7.81881744546323 4.12071621069003 0.0755386478188888 -0.0274095767371561 -0.0980269205156675 0.0926443260138759
1150000000 -0.663639519728291 0.0662485352836295 7.97782292955536 3.16034722322107 0.0751669607594212 -0.0345016493392526 -0.0867356125907689 0.12053052042427
1200000000 -0.633133467167104 0.161241849928861 8.04097636098038 2.20822562256766 0.0740051588507459 -0.0416698046836498 -0.0702881481181424 0.142688954695913
1250000000 -0.589018157701861 0.251744549537588 8.01238742250663 1.28904998074923 0.0720589342253479 -0.0489469364179832 -0.0510601370417964 0.167755235344569
1300000000 -0.536466105313288 0.331291783262783 7.84635651149158 0.428090231019218 0.0692775101988718 -0.0557275574896424 -0.0274586439583771 0.1868443459158
1350000000 -0.477125801814188 0.403609920471081 7.5992840195844 -0.366069425480095 0.0660303417935129 -0.0622169505054781 -0.00146776086319888 0.205362650689829
1400000000 -0.414293879286556 0.462076570478505 7.27257226006629 -1.08535611683023 0.0622246918513348 -0.0686066513335532 0.0230684548919047 0.217871173755771
1450000000 -0.346337589865856 0.512887312808477 6.89363755514018 -1.72823646279126 0.0576159239798676 -0.0746951831431166 0.0525639608164903 0.229041619580155
1500000000 -0.268897788125046 0.551679187663365 6.47678839462712 -2.31951902834144 0.0523955285735628 -0.0802882636512418 0.0834790416795569 0.235278967196702
1550000000 -0.190113924135181 0.58512021847836 5.99739209363416 -2.84049670599851 0.0467043833650301 -0.0852468425847843 0.11657482853848 0.240042925124551
1600000000 -0.111129985862813 0.604249453967083 5.49977352751631 -3.28086154433095 0.0403793347609664 -0.0896687415740087 0.148710424178008 0.238803418436782
1650000000 -0.0349640775000164 0.614591619105199 4.98846584244188 -3.64295888374071 0.0341105746875989 -0.0934402417259581 0.180885639228286 0.233184797957672
1700000000 0.0402643943955754 0.619259219769972 4.48832223437679 -3.93952020542698 0.0274343014972223 -0.0968889159395659 0.211437607248607 0.223767301502631
1750000000 0.115281130185122 0.608939162834598 3.9747667710994 -4.18729373589896 0.0205118887769841 -0.099870805918387 0.240955997254382 0.211132221940355
1800000000 0.19177745033975 0.595859690055035 3.45397906672737 -4.36412372516208 0.01308133111859 -0.102370225789298 0.271335738578516 0.19907945313349
1850000000 0.260037989154821 0.574108939067623 2.94125603381038 -4.47342520658066 0.00539051468632808 -0.103706020698149 0.299807498791773 0.181861042682899
1900000000 0.322883621764043 0.545236554488483 2.45156075802333 -4.54436824242643 -0.00201156275886064 -0.104413551844374 0.325012839002872 0.160267387341984
1950000000 0.381712988285718 0.50976376787314 1.99823600295823 -4.59864408765454 -0.00930970266869373 -0.105085817508392 0.347075833058231 0.134987886780471
2000000000 0.435792109550107 0.471337374541737 1.5577577277761 -4.59768893491556 -0.0167351661515842 -0.105010157071687 0.367172646877668 0.10838410144513
2050000000 0.488704287612853 0.428197055165229 1.13709029950343 -4.55502479417191 -0.0243612922983344 -0.104543764880414 0.386630054010821 0.0841684339910921
2100000000 0.531204498777541 0.382560182370325 0.729584755309638 -4.48370513052319 -0.0322498568919747 -0.102976437284342 0.402552903722195 0.0549603953477932
2150000000 0.570868330802653 0.329196795036852 0.354771895784695 -4.38289340528413 -0.0393335007685251 -0.100781723096184 0.415477540145728 0.0238012855936503
2200000000 0.602152712724161 0.276490617967053 0.0049197740882593 -4.26437319863478 -0.0461997743758296 -0.0982568849039926 0.425909455277089 -0.0117019777576096
2250000000 0.631303600782276 0.221731433706605 -0.319434895762186 -4.12665807397774 -0.0529209404096911 -0.0957707417282874 0.432254999159983 -0.0422332583143491
2300000000 0.655374338573556 0.164401462464151 -0.62106913203612 -3.96338569885176 -0.0597762915385175 -0.0925509646968676 0.43706461146854 -0.0776992849252581
2350000000 0.671771683489535 0.108963272812243 -0.899783891946362 -3.78830023702667 -0.0665429910694124 -0.0883760567595422 0.440625574800753 -0.108863153966574
2400000000 0.683717484705132 0.0479113482861024 -1.16345184235283 -3.61041419463611 -0.0722914884590264 -0.0836659056832723 0.438065189546945 -0.145105641256942
2450000000 0.689921322158368 -0.0111559696927888 -1.39645143004374 -3.41521639617235 -0.0776328878886562 -0.0792462487936144 0.432881683012808 -0.181445067726539
2500000000 0.68936001397146 -0.069548133260914 -1.59976242733692 -3.20405151959824 -0.0828205474685506 -0.0745761872772579 0.42400379620855 -0.213458893826613
2550000000 0.686797286702274 -0.127347705265817 -1.78398302373285 -2.9918586205168 -0.0880081902675758 -0.0694361582501959 0.41390556824659 -0.247942600117173
2600000000 0.676164301402743 -0.18186023210331 -1.94925593604437 -2.77357393698339 -0.0924550550101718 -0.0637219508078387 0.401461731810966 -0.277064616700866
2650000000 0.662138457074155 -0.236627902203663 -2.09931637145312 -2.55778343858255 -0.0968547929799146 -0.0580379213224347 0.382643165580241 -0.309485562888187
2700000000 0.64424969984472 -0.289881777035985 -2.2225328447783 -2.33937512819799 -0.100991275994075 -0.0521838799640758 0.368247625160285 -0.339350457558616
2750000000 0.625012026558938 -0.340091231461385 -2.32022673183852 -2.11266990945434 -0.104397514093496 -0.0457772130273685 0.344816553978701 -0.363849574340156
2800000000 0.598459689698574 -0.388051328081502 -2.41619426183455 -1.89250480210666 -0.107640905214278 -0.0391659260694058 0.323129999621771 -0.392807305944794
2850000000 0.569375165888415 -0.434772893873608 -2.48784316824489 -1.66971888475828 -0.110364540463049 -0.0324034788362382 0.297478633422539 -0.415069603947269
2900000000 0.536531325237441 -0.477472335340233 -2.5332368151747 -1.45523099837755 -0.112796388306235 -0.0257539363607779 0.270782672355077 -0.438127128571625
2950000000 0.500139592988093 -0.516743279658843 -2.57137695477699 -1.24292764858499 -0.114729870133951 -0.0187989750632348 0.242249732856368 -0.458756842256383
3000000000 0.463131893156452 -0.553907414637892 -2.57724231683891 -1.03853725366806 -0.116325154259402 -0.0116731179452795 0.21294015383235 -0.47669767365358
3100000000 0.378647257735042 -0.614993187547209 -2.58572137774337 -0.639653104573802 -0.118002554443938 0.00276723106617572 0.148003432066694 -0.503860230021164
3150000000 0.334687911359539 -0.640324188198303 -2.56339271170836 -0.457076231600086 -0.118340938497491 0.0100035577324588 0.116440185766881 -0.51736214521737
3200000000 0.289279839710131 -0.663157704461952 -2.54229556639669 -0.270012856819698 -0.118406473431969 0.0175315113449924 0.0820924323780161 -0.523047414849831
3300000000 0.194213747404036 -0.695928519716869 -2.4564113308032 0.0757140362798781 -0.116837763222931 0.0323418726745338 0.0129524159216969 -0.531598045765873
3400000000 0.0959753231013161 -0.715488392126554 -2.33422379533565 0.378864044532752 -0.113498229571342 0.0469364354473092 -0.055835315291089 -0.531784265866087
3450000000 0.0470996126191537 -0.719214513194256 -2.26487482051988 0.529161730690401 -0.111196406085627 0.0543222946116386 -0.0926989686379857 -0.52582908601886
3500000000 -0.0025647478078617 -0.718824569007267 -2.18828597211055 0.658275219714067 -0.108533188529143 0.0614072087341708 -0.124664514157935 -0.520102192234975
3600000000 -0.099459916035748 -0.707768756373709 -2.01969093568178 0.912429895987895 -0.101833827011209 0.0751585463544726 -0.192547172124774 -0.497975063766891
3700000000 -0.190173392571432 -0.683741048029946 -1.83770648070671 1.13770373484393 -0.0937658536037101 0.0884701870372108 -0.253142931774106 -0.464360860999471
3750000000 -0.234156009631541 -0.667463389030857 -1.73580670768894 1.23838294764095 -0.0888707737521886 0.0948437274272688 -0.278766424001653 -0.446453791896963
3800000000 -0.276090914814674 -0.648356108971202 -1.63650518131129 1.33385606642445 -0.0837973029115132 0.101109155830089 -0.306694253573778 -0.423914320780639
3900000000 -0.355935312723519 -0.60176741866603 -1.42676524989847 1.49712486370751 -0.072280551589054 0.112821328748146 -0.353239666162398 -0.377635111204447
4000000000 -0.427103842692721 -0.546300989371956 -1.19371014299484 1.65727996487857 -0.0593714744636347 0.124025699290645 -0.392516205671834 -0.327911063443273
4050000000 -0.460061154612824 -0.514368625666817 -1.07269565190593 1.72327332055713 -0.0521927414972573 0.128976033982288 -0.411825223890593 -0.299333644060579
4100000000 -0.490133301449399 -0.481529824810363 -0.942950846867715 1.78676205674081 -0.0444732206677287 0.133907194499003 -0.426544142060515 -0.273638292016325
4200000000 -0.54530415580036 -0.409701706332511 -0.670949088760244 1.88891995275893 -0.0279046799593765 0.142324287748656 -0.452249984276065 -0.214550694362872
4300000000 -0.590672611290662 -0.330891767253387 -0.39747442789892 1.94965712493275 -0.00932637179672432 0.148965207853796 -0.468277752123982 -0.154681381305339
4350000000 -0.608826729792221 -0.289551120076625 -0.251935025771542 1.96682856351216 0.00063370888423199 0.151260048027771 -0.474120990941405 -0.123430570396577
4400000000 -0.624389737899073 -0.245532253479187 -0.110303316761318 1.97352935968033 0.0107558124270147 0.152962552318062 -0.476829040193507 -0.0933202185064138
4500000000 -0.645938091132492 -0.157016692748892 0.170762963886705 1.95695517717074 0.032237469068582 0.154396536948325 -0.475852585060938 -0.0312034966290482
4600000000 -0.654151383247144 -0.0647551718260424 0.45408977956648 1.90284656264224 0.0545559860326648 0.152956489649122 -0.467914358491662 0.0293075105622434
4650000000 -0.655467041711392 -0.0171832321612167 0.58218632359985 1.85965352959661 0.065726040354439 0.150987372163353 -0.459784868951088 0.0593742164667292
4700000000 -0.649845001238315 0.027909558680247 0.725083566397669 1.80546441017107 0.0773618238374829 0.147971365126943 -0.452621965960342 0.08906703048484
4800000000 -0.631753081678921 0.120769896587731 0.988153725902616 1.67192379526129 0.100114113885123 0.139861223204348 -0.427580325868531 0.144103286658275
4900000000 -0.598873228882843 0.210249959010124 1.23478705740171 1.49851579826575 0.122434031006697 0.127740132028477 -0.395120794598758 0.193652561368683
4950000000 -0.578207530184793 0.251290083542114 1.33526844759101 1.40071413384352 0.133250524248068 0.12015987417139 -0.379292602297029 0.217786039339006
5000000000 -0.551070123156285 0.292511864187763 1.44643206317653 1.29065204900085 0.143811247884157 0.111868551541339 -0.356215659785439 0.237510405953948
5100000000 -0.493336203203475 0.367239418746806 1.62490931133566 1.04946351014432 0.163240352511213 0.0921181933047538 -0.314452496636753 0.275849960890511
5200000000 -0.422561214168942 0.43217216835386 1.76926196457101 0.775593244292178 0.17998459116675 0.068566286040011 -0.267091316370636 0.309564865238412
5250000000 -0.384119204385896 0.461836587838596 1.82199696164084 0.632171366016121 0.187192794703007 0.05551674734458 -0.239166568774788 0.322695260403086
5300000000 -0.341408362758858 0.48614352254217 1.86252994611122 0.487889088705245 0.193455683070628 0.0417232963554999 -0.215684862339678 0.337777880765746
5400000000 -0.2534380803344 0.526870064936069 1.91364090882287 0.180050721492262 0.20305691619031 0.0116857406864614 -0.161108610160021 0.35587666572125
5500000000 -0.159061817155594 0.551203362028885 1.91155671567565 -0.135025035581256 0.207674690120714 -0.0206452773745932 -0.106529968952916 0.362541106284079
5550000000 -0.11216609253497 0.559112804200189 1.88849151430455 -0.29857731826809 0.207951148021491 -0.0376335824875683 -0.0810424537836233 0.364155857933649
5600000000 -0.0638564673510669 0.563356916746495 1.85488416014398 -0.443255720761958 0.206829221207142 -0.0547923141667397 -0.0527481230576875 0.365049933705147
5700000000 0.0349545070598129 0.5574467978371 1.73913272440812 -0.751513624922072 0.199797457928249 -0.0894045620305774 -0.00132893694843932 0.358243402354782
5800000000 0.131609459991282 0.534530916278127 1.57141044042315 -1.02843688783073 0.186486707692771 -0.12317435456488 0.0494509057149465 0.348697495032811
5850000000 0.17859492251174 0.517393020345197 1.46693032757338 -1.15932583497205 0.177625575743712 -0.139997396799994 0.0774867653685808 0.340800458822568
5900000000 0.223115325005218 0.495655171081798 1.35629925792181 -1.27291726273351 0.1671347561721 -0.155696818103038 0.101732338056252 0.332995850443327
6000000000 0.308383316429545 0.441445811922857 1.09315601715196 -1.47178133185513 0.141245233801263 -0.184517787658133 0.151582305035003 0.310694344505775
6150000000 0.416342160499548 0.335811047685758 0.653499123966506 -1.67055082414854 0.0924966110253736 -0.219935635775225 0.221931530245156 0.261669766377604
6300000000 0.497332653725088 0.20414477078052 0.181267090253679 -1.73402791759516 0.0329841254979892 -0.241110806999455 0.286404987973459 0.195322190448392
6450000000 0.539607298175968 0.0514843848200005 -0.290890718007127 -1.65622364096327 -0.0319549106294836 -0.244904283825629 0.335325685899205 0.109240733643082
6600000000 0.540838218013792 -0.105455596276195 -0.702055386006385 -1.45002330187115 -0.0976956864850107 -0.229232132000925 0.363562783256004 0.00873971448268267
6750000000 0.501341162968982 -0.259801050988661 -1.01110513190647 -1.14628616297107 -0.156437223284049 -0.193920943454008 0.367646440731451 -0.100743307908973
6900000000 0.4224671634955 -0.398633044150046 -1.20347364326097 -0.782083337888921 -0.202230166809696 -0.141054763035368 0.33780254302407 -0.210476079114703
7050000000 0.316063337774805 -0.512624549016167 -1.27320826014329 -0.413467455202372 -0.227632525260547 -0.0762696197332187 0.278323496745111 -0.31956257302442
7200000000 0.183708659726067 -0.596054008758781 -1.23090756426567 -0.0668594365981428 -0.229787826712652 -0.00859211387503515 0.193097033623002 -0.4090958502832
7350000000 0.0361963447192286 -0.64760253737852 -1.10686878612897 0.217979591639018 -0.209040385574352 0.052805730506262 0.0828253411800741 -0.47075623574446
7500000000 -0.122121348014344 -0.667900803562636 -0.942082501350674 0.430862375337402 -0.174329705786204 0.0954507858193589 -0.0522890299124671 -0.507687729882324
7650000000 -0.279496064020793 -0.645326349075253 -0.745239936022142 0.575906525485913 -0.131622504734264 0.121789052958033 -0.188288304508322 -0.511526563172312
7800000000 -0.426347027207361 -0.587921762086842 -0.549933858498767 0.659173006000518 -0.0921553555666011 0.133676527067481 -0.318859572653902 -0.475466949635998
7950000000 -0.557733580491328 -0.498078579193754 -0.36670967031883 0.69183886068684 -0.0607556143357154 0.134552286231455 -0.438681577414485 -0.401270946934318
8100000000 -0.661805272540627 -0.381758917257831 -0.204851372975205 0.687654752738321 -0.0361528009572898 0.13188549000662 -0.540902226282783 -0.309829967028937
8250000000 -0.734336887562627 -0.247121443985155 -0.0639418943708736 0.657189238926339 -0.0153713854771206 0.129154655785233 -0.610444270029307 -0.198809483329686
8400000000 -0.771045696134681 -0.10848968988904 0.053464455511789 0.606551756499288 0.0073838838275432 0.125866441339506 -0.643608220110109 -0.0746887696538577
8550000000 -0.781916554779827 0.0246133512856317 0.143799057995653 0.54499277407424 0.0255694067575606 0.117371739095689 -0.655979001231554 0.0436400541288494
8700000000 -0.767836110218834 0.154695237859548 0.214888529989211 0.483808601746368 0.0399011082636706 0.111665590648894 -0.648293137204771 0.1569375034997
8850000000 -0.732692555259442 0.273352427004643 0.275104647454167 0.422639965698685 0.0569067271915688 0.104277934234385 -0.618217609574807 0.261503840589453
9000000000 -0.684051002537269 0.37746107815435 0.328896316693234 0.361510687599616 0.0757009616177705 0.0945022331945658 -0.573712341782528 0.352869306540752
