! Created on 9/7/2020 4:02:19 PM
! Agilent Nonlinear Vector Network Analyzer (NVNA) Version 02.04.05

! S-Parameter data
! freq S11 S21 S12 S22
# Hz S RI R 50
1000000000 0.494744648796055 -0.874144539885254 0.000114043776115478 -2.57599144766855E-06 0.000116818406618719 7.61722744122655E-06 0.494512660284996 -0.867920101136895
1050000000 0.447599717178891 -0.898943272799361 0.000142497393434756 -2.33693873818937E-05 0.000113671721107814 -2.35421274785787E-05 0.446267240842072 -0.892076594317074
1100000000 0.398153514484994 -0.922105780009143 0.00013382443904292 -1.36336026062732E-05 0.000121466783735307 -1.54463349729008E-05 0.397659722148266 -0.913248927311352
1150000000 0.347989613834579 -0.941462556230743 0.000128563807183299 -2.38865294162795E-05 0.000175328098819304 -5.19402491336783E-05 0.346884511350911 -0.929925352139471
1200000000 0.296086411156894 -0.959295310340475 0.000126645906284415 -5.30420084164782E-05 0.000119635020183155 -4.66341807517113E-05 0.297792868606755 -0.952615845768665
1250000000 0.243570649488011 -0.974129746997901 0.000140891530363178 -7.70045757672223E-05 0.000171607810261033 -5.09825214013757E-05 0.244986537653038 -0.967025069830679
1300000000 0.19023866860494 -0.985336511338107 0.000132657751055194 -6.52305667643523E-05 0.000163213548736749 -7.38344287250767E-05 0.192142204077987 -0.978257330073318
1350000000 0.136179175757568 -0.994169998249204 0.000146812101597912 -0.000104128697281662 0.000190900284521789 -8.54861252342953E-05 0.13850026695289 -0.987556149135584
1400000000 0.0813598750240189 -0.999889626141231 0.000142651473601882 -0.000139541589080714 0.000156486034930227 -0.000122798855261012 0.0830435498736257 -0.994989884380921
1450000000 0.0258006047239814 -1.00282063310105 0.000181279483669862 -0.00015113130278795 0.000154093499548771 -0.00013578953613626 0.0288347480433991 -0.99733201797306
1500000000 -0.0299459876225385 -1.00313216138187 0.000161793625933035 -0.000170028631244956 0.000152851765737372 -0.000171927035475147 -0.0268634072254683 -0.996355545909088
1550000000 -0.0856385368301625 -0.999313836442888 0.000196715337642784 -0.000181431783756151 0.000190543289159589 -0.00016688324344237 -0.0823784050705304 -0.993761351391998
1600000000 -0.141535637755937 -0.992485275256555 0.000179228312844529 -0.000227059371284793 0.00018910478607638 -0.00024518698330811 -0.138612598676974 -0.987842878890646
1650000000 -0.197310946824531 -0.982987695702719 0.000197982127970523 -0.000256949759835777 0.000141971807270018 -0.000245831049379332 -0.193226012777554 -0.978708973119054
1700000000 -0.252308289394124 -0.970279335134532 0.000143123416323134 -0.000286593560724961 0.00017475279696758 -0.000307818270039263 -0.245968787970181 -0.964894468896628
1750000000 -0.30710169486319 -0.954799143738712 0.000130475895292686 -0.000340399190867216 0.000144559185723172 -0.000313489313867289 -0.300532892237352 -0.949568552096779
1800000000 -0.360516968743268 -0.934921517154805 0.00016046197095818 -0.000358591571354571 0.000129914158776083 -0.000364983956092329 -0.354612763776328 -0.929794058961945
1850000000 -0.413817686470476 -0.912712231814358 9.9482124406173E-05 -0.000421165923170271 0.000143036725121408 -0.000452201492390763 -0.407548557705544 -0.908798073556265
1900000000 -0.465840417217295 -0.886795943017139 8.15169703032738E-05 -0.000504400359696145 9.68219847451215E-05 -0.000506175082722604 -0.45880328424203 -0.883935475921683
1950000000 -0.516160145034475 -0.858147923098182 4.39604221213529E-05 -0.000552167974704134 2.12537173962551E-06 -0.000547011068035012 -0.508885611850495 -0.855914955314248
2000000000 -0.565160737762514 -0.826720075004363 -9.29446918303459E-06 -0.000542870044436307 -1.60212938290565E-05 -0.000519981541798087 -0.55616751977167 -0.824382580195902
2050000000 -0.611796420326958 -0.791479812549587 -1.33885911119394E-05 -0.000591774764115965 -1.6547159175222E-05 -0.000593923562629457 -0.603134689007527 -0.789662288560999
2100000000 -0.657736060035499 -0.753118515802661 -1.93822254816614E-05 -0.000676895509215182 -1.09646142238531E-05 -0.000699670753436358 -0.648089867238633 -0.753393432307927
2150000000 -0.700463098440622 -0.712918889352164 -0.000119557942060384 -0.000788581111848194 -0.00011992881208703 -0.000791642636389053 -0.690874933016308 -0.713437582537886
2200000000 -0.74151771571463 -0.669198826387241 -0.000262228454539848 -0.000792274957777479 -0.000234611899405899 -0.000800316500213583 -0.731037498794085 -0.67148083697171
2250000000 -0.779840571950109 -0.624012663772197 -0.000300140807223946 -0.000823694653382256 -0.000306968787894667 -0.000809985362566761 -0.768834310411701 -0.626362479297785
2300000000 -0.815586670068706 -0.574687968271968 -0.000416453167447184 -0.000922708350161468 -0.000365341112911123 -0.000945012951699419 -0.804743007992787 -0.579287474510455
2350000000 -0.849174264489561 -0.523682929064636 -0.000512364361376155 -0.000979361727199746 -0.000494708194895775 -0.000949519458393265 -0.836606283114416 -0.529844266322623
2400000000 -0.878765419411953 -0.470831155071964 -0.000585539986247207 -0.00100709460837792 -0.000609364274369981 -0.00103122026468958 -0.867341391763225 -0.478206195975104
2450000000 -0.905975597699713 -0.414935995324154 -0.000692915799537688 -0.00111214239178524 -0.000692775596938341 -0.00113119256974704 -0.893076826216652 -0.424607853627911
2500000000 -0.92934519237053 -0.359011572902114 -0.000925680458945565 -0.00120272609222417 -0.00088607266537162 -0.00120863367042369 -0.916843233592102 -0.369266590140927
2550000000 -0.948732314152334 -0.29888782969986 -0.00113223594258753 -0.00125379391081851 -0.00111182465342638 -0.0012644389270961 -0.936980021940632 -0.312081209949442
2600000000 -0.965777553596378 -0.238798784290965 -0.00139238790769966 -0.00132250402850016 -0.00139717959200903 -0.00128768054611527 -0.95358465740404 -0.253758920870877
2650000000 -0.977953673123839 -0.17751151626608 -0.00160535513917541 -0.00134754071263225 -0.0015789321462824 -0.00134439628440463 -0.968014680646602 -0.194691019503366
2700000000 -0.987005452924731 -0.114802844328395 -0.00182424998128895 -0.00138290154045841 -0.0018380078560351 -0.00139782087031727 -0.976912633896914 -0.133561423242861
2750000000 -0.991363697359406 -0.0514002157045243 -0.00215711119499562 -0.00159712373269228 -0.00216230651411123 -0.0016492522050988 -0.98357642375004 -0.0722646377338683
2800000000 -0.991778873587388 0.0135618580213646 -0.00267769170133016 -0.00182640311376835 -0.00270872313664513 -0.00179843548605524 -0.984705509115873 -0.0102797313902566
2850000000 -0.987810604575067 0.0784114190546336 -0.00345965451368641 -0.00200358227536537 -0.00347803422591274 -0.00199469854362774 -0.98235098298691 0.0526752855295657
2900000000 -0.978286608768069 0.143114364635591 -0.00471175850508432 -0.00187354647143995 -0.00470742305924742 -0.00185965358763978 -0.97556581025422 0.114336415689109
2950000000 -0.965865823354681 0.206430949847702 -0.00593578727414238 -0.00116278747464195 -0.00593565980463158 -0.00113997632674646 -0.964314445910247 0.176269553570921
3000000000 -0.947338559456274 0.269096676415672 -0.0069387627885433 -0.000106816225938813 -0.00695704894352384 -9.30436948966918E-05 -0.950045805156947 0.23718545023871
3100000000 -0.899617819279185 0.390657579629714 -0.00895057948725374 0.00283104460687705 -0.00896971290792932 0.00279359907050031 -0.908050459163281 0.356068579238062
3150000000 -0.869708869875195 0.448291114401528 -0.00922559121681262 0.00544049409421277 -0.00922453438828657 0.00545765479809592 -0.881879173398357 0.412125798461116
3200000000 -0.836770117414986 0.504042888985859 -0.00832046251297746 0.00771385393328983 -0.00838445819976803 0.00769582366770599 -0.85264656290916 0.468060391281456
3300000000 -0.7589015331461 0.609740795550306 -0.00632087600824618 0.0117976904537135 -0.00633381341787739 0.0118310493168734 -0.782499127056049 0.572398791615119
3400000000 -0.668083380668481 0.70542089587906 -0.00234896718055678 0.0153881343671604 -0.00240738279200475 0.0153813226066647 -0.699460881062932 0.668939587809887
3450000000 -0.617878413521234 0.748947275551866 0.000537947830261509 0.0162354422523784 0.000555099293090443 0.016173436168955 -0.653276198373794 0.714594080126091
3500000000 -0.563427504470938 0.789455164052702 0.00335019511724189 0.0166527471009938 0.00330531428267858 0.0166330034858991 -0.604017353824714 0.756316722399981
3600000000 -0.447293480009862 0.859774174132799 0.00889648128904958 0.0156992411710626 0.00895049738369383 0.0157406051719338 -0.496276773282845 0.830933083731395
3700000000 -0.318333604385337 0.912677487532841 0.0129718190429649 0.0138540517660832 0.0129889183499697 0.0138556001170143 -0.376215261791425 0.889376756479408
3750000000 -0.251297515176598 0.932086616752449 0.0153591886867413 0.0128609392663691 0.0153166077601648 0.0128846596344076 -0.313960966512734 0.911762389815164
3800000000 -0.182475980868336 0.946190385589695 0.0175737186230135 0.0113303321960275 0.0175156552843644 0.0114006956073648 -0.248481210940328 0.931068446228597
3900000000 -0.0415767247022436 0.959551441411663 0.0218971661511408 0.00773057778987806 0.0219104736945353 0.00775009580113886 -0.115757319007875 0.954719150153715
4000000000 0.100660037792831 0.950521886900412 0.0256165673968659 0.00220326102345257 0.0256920138473345 0.002183241385962 0.0203617675186447 0.958748972942706
4050000000 0.171016363189454 0.938576424075796 0.0271224238180932 -0.000849594430224339 0.0271517894175759 -0.0008607479563187 0.089362351439672 0.953934058806534
4100000000 0.240322818709631 0.920338769690624 0.0283106491261451 -0.00439199087782322 0.028291462250347 -0.00439157491276463 0.15670656368385 0.941486958750857
4200000000 0.374687843904094 0.868178114402273 0.0291473140019636 -0.0128283511458401 0.0291892662271202 -0.0127692356776849 0.288015141418703 0.90465022675864
4300000000 0.498264862998562 0.79553322114258 0.027483676023205 -0.0218822885053272 0.0275248748958346 -0.021889464899843 0.414751936035336 0.849124856639358
4350000000 0.555223091852359 0.751307300717181 0.0256021118695886 -0.0261989669201238 0.0256309719670925 -0.026207240567806 0.473464214785739 0.81391799695882
4400000000 0.608531629035755 0.703675703269011 0.0231207839622801 -0.0306468940113832 0.0231267376492891 -0.0306393980227706 0.529956649965829 0.773664772302877
4500000000 0.703817514549805 0.596227317320366 0.0158394543936769 -0.0390100823560943 0.0159461911039883 -0.0390410229413816 0.6328565204952 0.682142234133716
4600000000 0.776958233859093 0.475940659517226 0.00537887996461736 -0.0458597818140462 0.00542754325277047 -0.0457665798947031 0.720432993162435 0.577644009241678
4650000000 0.806222962590972 0.413373502603289 -0.00151042293493354 -0.048042311613079 -0.0014718127542993 -0.0480817494123908 0.758174428112471 0.520764667553759
4700000000 0.829790667766672 0.348976530233044 -0.00795869486782297 -0.0488425202201502 -0.00795335831792593 -0.0487876525447665 0.791237516724921 0.461574985844495
4800000000 0.865026220580911 0.215104515211938 -0.0217796585349502 -0.0480454109650726 -0.021714370190556 -0.0480298525077103 0.842304586342203 0.337887122553711
4900000000 0.874137783170818 0.0810042207471238 -0.0354181843570322 -0.042142064692787 -0.0352919160434002 -0.0421144104196073 0.872883458632169 0.208267822545541
4950000000 0.874820993007376 0.0161651276742327 -0.0404232257546597 -0.0381275304709464 -0.0403959990400145 -0.0381264307918642 0.881180804918088 0.144289868183318
5000000000 0.869214651551884 -0.0498775782484121 -0.0467458307283162 -0.0334081200253581 -0.0466241422893599 -0.0332952338611657 0.887274660639549 0.0771061384613031
5100000000 0.84354827681772 -0.177697235634883 -0.0554399842525628 -0.0216230858269619 -0.0552612247433587 -0.0214104858956653 0.879436530536451 -0.051991594798081
5200000000 0.799412234534457 -0.298919934893795 -0.060644536275326 -0.00876561999696584 -0.0605333086879045 -0.00874946905195266 0.855146387884834 -0.176528298540484
5250000000 0.770774553666801 -0.354767984833171 -0.0625890366755848 -0.00239592410275318 -0.0625732367940136 -0.00252232930984551 0.838486256871844 -0.239412791782164
5300000000 0.739742738267027 -0.409105378586493 -0.0629670919570138 0.00472244663415523 -0.0629069097605837 0.00470147412604287 0.814373005830929 -0.296008891491835
5400000000 0.664615489179432 -0.51167700888181 -0.0648010423587123 0.0179266065867478 -0.0645284159618665 0.0178796984001357 0.756393604432324 -0.411013545420239
5500000000 0.575244086942363 -0.597381062770798 -0.0614800340170191 0.0343522612634832 -0.0616164403025184 0.0342911724573132 0.682480973554909 -0.510378672626808
5550000000 0.526934275448699 -0.632892615409192 -0.0584707983581887 0.0434623262757774 -0.0585440212420869 0.0434616282144279 0.639390069395394 -0.555701495661042
5600000000 0.477216668496893 -0.666011153623839 -0.0549448624439869 0.0497669374367678 -0.0550201654693729 0.0499369086746504 0.594779065431991 -0.598654615886496
5700000000 0.371270116599694 -0.718181370332875 -0.0463772368817848 0.0645517325785352 -0.0463786503610811 0.0643703874429727 0.495957382693042 -0.669110159797459
5800000000 0.264097973528747 -0.752373505173968 -0.030133935086993 0.0802725067706906 -0.0301808743416044 0.0801910810416675 0.392095841070283 -0.722303526337087
5850000000 0.211063703016041 -0.763098155429646 -0.021313506076502 0.0862085924024363 -0.0213480224990945 0.0861950494944878 0.339538962313652 -0.743921038905364
5900000000 0.158616710927679 -0.77129811585345 -0.0108820330901513 0.0911160464531321 -0.0108244665141028 0.0911561589843123 0.285352198436947 -0.760473687620297
6000000000 0.0578711886806558 -0.774587715130322 0.014873818922803 0.0958384173120528 0.0151130564969599 0.0958648405071902 0.179610812079932 -0.782513612304237
6150000000 -0.0839831154303659 -0.768409676210161 0.0572841386469993 0.083304176359169 0.0574972671895402 0.0832043533805297 0.0240812876959698 -0.800157616276588
6300000000 -0.235605822304166 -0.741763000822344 0.0835119506466664 0.0538189854091509 0.0834893541063427 0.0539033896137995 -0.141573462430053 -0.785886421534192
6450000000 -0.378986205526413 -0.674498165241876 0.094256487246577 0.0237573478415819 0.0944599937116617 0.0237800412075366 -0.300004583098037 -0.734794007252872
6600000000 -0.502129866888934 -0.578746656062086 0.0981823630576451 -0.00578914180121903 0.0979731761587642 -0.005792958491233 -0.440635479779713 -0.64771655444002
6750000000 -0.593263239050947 -0.456225742760477 0.096249077437762 -0.040276860096459 0.0962796799314846 -0.0400995013057411 -0.554619641897209 -0.532663821694904
6900000000 -0.650061949302062 -0.322233062190081 0.0839992939433459 -0.0722380992961545 0.0836251841786522 -0.0721817279532065 -0.62967979677481 -0.396041945851222
7050000000 -0.672952707278363 -0.186366134371062 0.0532416533120127 -0.108612457795203 0.053254231705326 -0.108206647773241 -0.671179626571971 -0.259248077150434
7200000000 -0.654679945273927 -0.0589815221917139 0.00960295191442474 -0.125726739423386 0.00925867259189834 -0.125660334257338 -0.676001293372886 -0.119721363295111
7350000000 -0.607601329383593 0.0481314104315423 -0.0490359799131375 -0.13002868611071 -0.0486541477416299 -0.129449807180299 -0.639527771378243 -0.00433607149300441
7500000000 -0.547251746416883 0.111452568802387 -0.10852644183136 -0.0877840852951684 -0.108924104900847 -0.0880066924821661 -0.586578367279156 0.0788044210581253
7650000000 -0.491422622900375 0.148033420346756 -0.133285520491197 -0.0236777342741481 -0.132644648415399 -0.0233768705781041 -0.543493709843258 0.133035878474716
7800000000 -0.466233356483272 0.168699014984583 -0.116936115558764 0.0443024998117252 -0.117037056819211 0.044306817691378 -0.514399333139945 0.172837617555432
7950000000 -0.448019782157028 0.203192919831011 -0.0662360932107297 0.082197210724066 -0.066145076843687 0.0820128290083459 -0.494503805890099 0.218294872950962
8100000000 -0.42477587559603 0.245245722826483 -0.0166398702848521 0.0860949729208046 -0.0165821587970207 0.0860740868312322 -0.46396882946511 0.275936047161805
8250000000 -0.382707028790315 0.266864787595516 0.0207868060094454 0.0676094524159304 0.0208056471064199 0.0678634537508914 -0.414384607428655 0.320759218155364
8400000000 -0.36848647775675 0.253824127073189 0.0473339806020742 0.03982565754181 0.0475105591030741 0.0397511003980542 -0.36792305576212 0.321631198933142
8550000000 -0.433534957579844 0.250432517987575 0.0406011689476933 -0.00928191829201907 0.040477923038161 -0.00895970703842229 -0.387774361980904 0.316395247421536
8700000000 -0.515361150172774 0.377968890408499 0.00643157545044983 -0.00605166477652568 0.00631839871807624 -0.00616132399763394 -0.428718985438186 0.380228415305382
8850000000 -0.474907207278396 0.564607065756791 0.0106816737545276 -0.0080464791560252 0.0106272617182662 -0.00798483011975494 -0.415908931547797 0.490952771830363
9000000000 -0.325813202943763 0.682925799253746 -0.00744964695070849 -0.0065809094759472 -0.00737691720059853 -0.00648871903318916 -0.378818088375147 0.58279809847976
